T38B8 3183:564 SEGGER J-Link V6.52c Log File (0000ms, 97427ms total)
T38B8 3183:564 DLL Compiled: Oct 11 2019 15:37:13 (0000ms, 97427ms total)
T38B8 3183:564 Logging started @ 2019-10-24 20:27 (0000ms, 97427ms total)
T38B8 3183:564 JLINK_SetWarnOutHandler(...) (0000ms, 97427ms total)
T38B8 3183:564 JLINK_OpenEx(...)
Firmware: J-Link OpenSDA 2 compiled May 27 2019 11:01:03
Hardware: V1.00
S/N: 621000000
TELNET listener socket opened on port 19021WEBSRV 
Starting webserver (0052ms, 97479ms total)
T38B8 3183:564 WEBSRV Webserver running on local port 19081 (0052ms, 97479ms total)
T38B8 3183:564   returns O.K. (0052ms, 97479ms total)
T38B8 3183:616 JLINK_GetEmuCaps()  returns 0x986A5A33 (0000ms, 97479ms total)
T38B8 3183:616 JLINK_TIF_GetAvailable(...) (0000ms, 97479ms total)
T38B8 3183:616 JLINK_SetErrorOutHandler(...) (0000ms, 97479ms total)
T38B8 3183:617 JLINK_ExecCommand("ProjectFile = "C:\Users\Markus\Downloads\Test_iMXRT1052.GCC\JLinkSettings.ini"", ...).   returns 0x00 (0002ms, 97481ms total)
T38B8 3183:619 JLINK_ExecCommand("Device = MIMXRT1052DVL6B", ...). Device "MIMXRT1052DVL6B" selected.  returns 0x00 (0007ms, 97488ms total)
T38B8 3183:626 JLINK_ExecCommand("DisableConnectionTimeout", ...).   returns 0x01 (0000ms, 97488ms total)
T38B8 3183:626 JLINK_GetHardwareVersion()  returns 0x2710 (0000ms, 97488ms total)
T38B8 3183:626 JLINK_GetDLLVersion()  returns 65203 (0000ms, 97488ms total)
T38B8 3183:626 JLINK_GetFirmwareString(...)
T38B8 3183:626 (0000ms, 97488ms total)
T38B8 3183:626 JLINK_GetDLLVersion()  returns 65203 (0000ms, 97488ms total)
T38B8 3183:626 JLINK_GetCompileDateTime() (0000ms, 97488ms total)
T38B8 3183:626 JLINK_GetFirmwareString(...)
T38B8 3183:626 (0000ms, 97488ms total)
T38B8 3183:626 JLINK_GetHardwareVersion()  returns 0x2710 (0000ms, 97488ms total)
T38B8 3183:626 JLINK_TIF_Select(JLINKARM_TIF_SWD)  returns 0x00 (0005ms, 97493ms total)
T38B8 3183:631 JLINK_SetSpeed(5000) (0001ms, 97494ms total)
T38B8 3183:632 JLINK_GetId()InitTarget() start J-Link Script File: Executing InitTarget() (0000ms, 97494ms total)
T38B8 3183:632 InitTarget()_TargetHalt: CPU haltedInitTarget() endFound SW-DP with ID 0x0BD11477Scanning AP map to find all available APsAP[1]: Stopped AP scan as end of AP map has been reachedAP[0]: AHB-AP (IDR: 0x04770041)Iterating through AP map to find AHB-AP to useAP[0]: Core foundAP[0]: AHB-AP ROM base: 0xE00FD000CPUID register: 0x411FC271. Implementer code: 0x41 (ARM)Found Cortex-M7 r1p1, Little endian. -- Max. mem block: 0x00001A78 -- CPU_ReadMem(4 bytes @ 0xE000EDF0)
 -- CPU_ReadMem(4 bytes @ 0xE0002000)FPUnit: 8 code (BP) slots and 0 literal slots -- CPU_ReadMem(4 bytes @ 0xE000EDFC) -- CPU_ReadMem(4 bytes @ 0xE0001000) -- CPU_WriteMem(4 bytes @ 0xE0001000) -- CPU_ReadMem(4 bytes @ 0xE000ED88) -- CPU_WriteMem(4 bytes @ 0xE000ED88) -- CPU_ReadMem(4 bytes @ 0xE000ED88) -- CPU_WriteMem(4 bytes @ 0xE000ED88)CoreSight components:ROMTbl[0] @ E00FD000 -- CPU_ReadMem(16 bytes @ 0xE00FD000) -- CPU_ReadMem(16 bytes @ 0xE00FEFF0) -- CPU_ReadMem(16 bytes @ 0xE00FEFE0)
ROMTbl[0][0]: E00FE000, CID: B105100D, PID: 000BB4C8 ROM TableROMTbl[1] @ E00FE000 -- CPU_ReadMem(16 bytes @ 0xE00FE000) -- CPU_ReadMem(16 bytes @ 0xE00FFFF0) -- CPU_ReadMem(16 bytes @ 0xE00FFFE0)ROMTbl[1][0]: E00FF000, CID: B105100D, PID: 000BB4C7 ROM TableROMTbl[2] @ E00FF000 -- CPU_ReadMem(16 bytes @ 0xE00FF000) -- CPU_ReadMem(16 bytes @ 0xE000EFF0) -- CPU_ReadMem(16 bytes @ 0xE000EFE0)ROMTbl[2][0]: E000E000, CID: B105E00D, PID: 000BB00C SCS-M7 -- CPU_ReadMem(16 bytes @ 0xE0001FF0)
 -- CPU_ReadMem(16 bytes @ 0xE0001FE0)ROMTbl[2][1]: E0001000, CID: B105E00D, PID: 000BB002 DWT -- CPU_ReadMem(16 bytes @ 0xE0002FF0) -- CPU_ReadMem(16 bytes @ 0xE0002FE0)ROMTbl[2][2]: E0002000, CID: B105E00D, PID: 000BB00E FPB-M7 -- CPU_ReadMem(16 bytes @ 0xE0000FF0) -- CPU_ReadMem(16 bytes @ 0xE0000FE0)ROMTbl[2][3]: E0000000, CID: B105E00D, PID: 000BB001 ITM -- CPU_ReadMem(16 bytes @ 0xE00FF010) -- CPU_ReadMem(16 bytes @ 0xE0041FF0) -- CPU_ReadMem(16 bytes @ 0xE0041FE0)
ROMTbl[1][1]: E0041000, CID: B105900D, PID: 001BB975 ETM-M7 -- CPU_ReadMem(16 bytes @ 0xE0042FF0) -- CPU_ReadMem(16 bytes @ 0xE0042FE0)ROMTbl[1][2]: E0042000, CID: B105900D, PID: 004BB906 CTI -- CPU_ReadMem(16 bytes @ 0xE00FE010) -- CPU_ReadMem(16 bytes @ 0xE0040FF0) -- CPU_ReadMem(16 bytes @ 0xE0040FE0)ROMTbl[0][1]: E0040000, CID: B105900D, PID: 000BB9A9 TPIU-M7 -- CPU_ReadMem(16 bytes @ 0xE0043FF0) -- CPU_ReadMem(16 bytes @ 0xE0043FE0)ROMTbl[0][2]: E0043000, CID: B105F00D, PID: 001BB101 TSG
 -- CPU_ReadMem(16 bytes @ 0xE00FD010) -- CPU_ReadMem(4 bytes @ 0xE000ED78)Cache: Separate I- and D-cache. (0238ms, 97732ms total)
T38B8 3183:632  -- CPU_WriteMem(4 bytes @ 0xE000ED84) -- CPU_ReadMem(4 bytes @ 0xE000ED80)I-Cache L1: 32 KB, 512 Sets, 32 Bytes/Line, 2-Way -- CPU_WriteMem(4 bytes @ 0xE000ED84) -- CPU_ReadMem(4 bytes @ 0xE000ED80)D-Cache L1: 32 KB, 256 Sets, 32 Bytes/Line, 4-Way  returns 0x0BD11477 (0245ms, 97739ms total)
T38B8 3183:877 JLINK_GetDLLVersion()  returns 65203 (0000ms, 97739ms total)
T38B8 3183:877 JLINK_CORE_GetFound()  returns 0xE0100FF (0000ms, 97739ms total)
T38B8 3183:877 JLINK_GetDebugInfo(0x100 = JLINKARM_ROM_TABLE_ADDR_INDEX) -- Value=0xE00FD000  returns 0x00 (0000ms, 97739ms total)
T38B8 3183:877 JLINK_GetDebugInfo(0x100 = JLINKARM_ROM_TABLE_ADDR_INDEX) -- Value=0xE00FD000  returns 0x00 (0000ms, 97739ms total)
T38B8 3183:877 JLINK_GetDebugInfo(0x101 = JLINKARM_DEBUG_INFO_ETM_ADDR_INDEX) -- Value=0xE0041000  returns 0x00 (0000ms, 97739ms total)
T38B8 3183:877 JLINK_ReadMemEx(0xE0041FD0, 0x0020 Bytes, ..., Flags = 0x02000004) -- CPU_ReadMem(32 bytes @ 0xE0041FD0) - Data: 04 00 00 00 00 00 00 00 00 00 00 00 00 00 00 00 ...  returns 0x20 (0002ms, 97741ms total)
T38B8 3183:879 JLINK_GetDebugInfo(0x102 = JLINKARM_DEBUG_INFO_MTB_ADDR_INDEX) -- Value=0x00000000  returns 0x00 (0000ms, 97741ms total)
T38B8 3183:879 JLINK_GetDebugInfo(0x103 = JLINKARM_DEBUG_INFO_TPIU_ADDR_INDEX) -- Value=0xE0040000  returns 0x00 (0000ms, 97741ms total)
T38B8 3183:879 JLINK_GetDebugInfo(0x104 = JLINKARM_DEBUG_INFO_ITM_ADDR_INDEX) -- Value=0xE0000000  returns 0x00 (0000ms, 97741ms total)
T38B8 3183:879 JLINK_GetDebugInfo(0x105 = JLINKARM_DEBUG_INFO_DWT_ADDR_INDEX) -- Value=0xE0001000  returns 0x00 (0000ms, 97741ms total)
T38B8 3183:879 JLINK_GetDebugInfo(0x106 = JLINKARM_DEBUG_INFO_FPB_ADDR_INDEX) -- Value=0xE0002000  returns 0x00 (0000ms, 97741ms total)
T38B8 3183:879 JLINK_GetDebugInfo(0x107 = JLINKARM_DEBUG_INFO_NVIC_ADDR_INDEX) -- Value=0xE000E000  returns 0x00 (0000ms, 97741ms total)
T38B8 3183:879 JLINK_GetDebugInfo(0x10C = JLINKARM_DEBUG_INFO_DBG_ADDR_INDEX) -- Value=0xE000EDF0  returns 0x00 (0000ms, 97741ms total)
T38B8 3183:879 JLINK_GetDebugInfo(0x01 = Unknown) -- Value=0x00000001  returns 0x00 (0000ms, 97741ms total)
T38B8 3183:879 JLINK_ReadMemU32(0xE000ED00, 0x0001 Items, ...) -- CPU_ReadMem(4 bytes @ 0xE000ED00) - Data: 71 C2 1F 41  returns 1 (0000ms, 97741ms total)
T38B8 3183:879 JLINK_GetDebugInfo(0x10F = JLINKARM_DEBUG_INFO_HAS_CORTEX_M_SECURITY_EXT_INDEX) -- Value=0x00000000  returns 0x00 (0000ms, 97741ms total)
T38B8 3183:879 JLINK_SetResetType(JLINKARM_CM3_RESET_TYPE_NORMAL)  returns JLINKARM_CM3_RESET_TYPE_NORMAL (0000ms, 97741ms total)
T38B8 3183:879 JLINK_Reset() -- CPU is running -- CPU_WriteMem(4 bytes @ 0xE000EDF0) -- CPU is running -- CPU_WriteMem(4 bytes @ 0xE000EDFC)Reset: Halt core after reset via DEMCR.VC_CORERESET.Reset: Reset device via AIRCR.SYSRESETREQ. -- CPU is running -- CPU_WriteMem(4 bytes @ 0xE000ED0C) -- CPU_ReadMem(4 bytes @ 0xE000EDF0) -- CPU_ReadMem(4 bytes @ 0xE000EDF0) -- CPU is running -- CPU_WriteMem(4 bytes @ 0xE000EDF0) -- CPU is running -- CPU_WriteMem(4 bytes @ 0xE000EDFC)
 -- CPU_ReadMem(4 bytes @ 0xE000EDF0) -- CPU_WriteMem(4 bytes @ 0xE0002000) -- CPU_ReadMem(4 bytes @ 0xE000EDFC) -- CPU_ReadMem(4 bytes @ 0xE0001000) (0181ms, 97922ms total)
T38B8 3184:060 JLINK_ReadReg(R15 (PC))  returns 0x00201414 (0000ms, 97922ms total)
T38B8 3184:060 JLINK_ReadReg(XPSR)  returns 0x01000000 (0000ms, 97922ms total)
T38B8 3184:060 JLINK_Halt()  returns 0x00 (0000ms, 97922ms total)
T38B8 3184:060 JLINK_ReadMemU32(0xE000EDF0, 0x0001 Items, ...) -- CPU_ReadMem(4 bytes @ 0xE000EDF0) - Data: 03 00 03 00  returns 1 (0001ms, 97923ms total)
T38B8 3184:061 JLINK_WriteU32(0xE000EDF0, 0xA05F0003) -- CPU_WriteMem(4 bytes @ 0xE000EDF0)  returns 0 (0001ms, 97924ms total)
T38B8 3184:062 JLINK_WriteU32(0xE000EDFC, 0x01000000) -- CPU_WriteMem(4 bytes @ 0xE000EDFC)  returns 0 (0002ms, 97926ms total)
T38B8 3184:064 JLINK_GetHWStatus(...)  returns 0x00 (0000ms, 97926ms total)
T38B8 3184:064 JLINK_GetNumBPUnits(Type = 0xFFFFFF00)  returns 0x08 (0000ms, 97926ms total)
T38B8 3184:064 JLINK_GetNumBPUnits(Type = 0xF0)  returns 0x2000 (0000ms, 97926ms total)
T38B8 3184:064 JLINK_GetNumWPUnits()  returns 0x04 (0000ms, 97926ms total)
T38B8 3184:064 JLINK_GetSpeed()  returns 0x595 (0000ms, 97926ms total)
T38B8 3184:065 JLINK_ReadMemU32(0xE000E004, 0x0001 Items, ...) -- CPU_ReadMem(4 bytes @ 0xE000E004) - Data: 04 00 00 00  returns 1 (0001ms, 97928ms total)
T38B8 3184:066 JLINK_ReadMemU32(0xE000E004, 0x0001 Items, ...) -- CPU_ReadMem(4 bytes @ 0xE000E004) - Data: 04 00 00 00  returns 1 (0001ms, 97929ms total)
T38B8 3184:067 JLINK_WriteMemEx(0xE0001000, 0x001C Bytes, ..., Flags = 0x02000004) - Data: 01 00 00 00 00 00 00 00 00 00 00 00 00 00 00 00 ... -- CPU_WriteMem(28 bytes @ 0xE0001000)  returns 0x1C (0002ms, 97931ms total)
T38B8 3184:069 JLINK_ReadReg(R15 (PC))  returns 0x00201414 (0000ms, 97931ms total)
T38B8 3184:069 JLINK_ReadReg(XPSR)  returns 0x01000000 (0000ms, 97931ms total)
T38B8 3184:072 JLINK_ReadMemEx(0xE0001004, 0x0004 Bytes, ..., Flags = 0x02000000) - Data: 00 00 00 00  returns 0x04 (0000ms, 97931ms total)
T38B8 3184:096 JLINK_WriteMemEx(0x00000000, 0x0400 Bytes, ..., Flags = 0x02000000) - Data: 00 00 22 20 95 0A 20 20 E1 0A 20 20 E5 0A 20 20 ... -- CPU_WriteMem(1024 bytes @ 0x00000000)  returns 0x400 (0013ms, 97944ms total)
T38B8 3184:109 JLINK_WriteMemEx(0x20200000, 0x1000 Bytes, ..., Flags = 0x02000000) - Data: 10 B5 05 4C 23 78 33 B9 04 4B 13 B1 04 48 AF F3 ... -- CPU_WriteMem(4096 bytes @ 0x20200000)  returns 0x1000 (0057ms, 98001ms total)
T38B8 3184:166 JLINK_WriteMemEx(0x20201000, 0x1000 Bytes, ..., Flags = 0x02000000) - Data: DA B2 3B 68 DB 00 03 F0 38 03 1A 43 40 4B 13 43 ... -- CPU_WriteMem(4096 bytes @ 0x20201000)  returns 0x1000 (0056ms, 98057ms total)
T38B8 3184:223 JLINK_WriteMemEx(0x20202000, 0x1000 Bytes, ..., Flags = 0x02000000) - Data: 3B 68 00 22 1A 60 3B 68 7A 68 9A 60 7B 68 3A 68 ... -- CPU_WriteMem(4096 bytes @ 0x20202000)  returns 0x1000 (0056ms, 98113ms total)
T38B8 3184:280 JLINK_WriteMemEx(0x20203000, 0x1000 Bytes, ..., Flags = 0x02000000) - Data: 7F FF 78 60 14 E0 00 20 00 F0 7A FF 78 60 0F E0 ... -- CPU_WriteMem(4096 bytes @ 0x20203000)  returns 0x1000 (0057ms, 98171ms total)
T38B8 3184:338 JLINK_WriteMemEx(0x20204000, 0x1000 Bytes, ..., Flags = 0x02000000) - Data: F3 F3 FB 60 18 E0 13 4B D3 F8 F0 30 1B 0C 03 F0 ... -- CPU_WriteMem(4096 bytes @ 0x20204000)  returns 0x1000 (0056ms, 98227ms total)
T38B8 3184:394 JLINK_WriteMemEx(0x20205000, 0x1000 Bytes, ..., Flags = 0x02000000) - Data: DA 83 FB 68 9B 8B 9B B2 23 F0 20 03 9A B2 FB 68 ... -- CPU_WriteMem(4096 bytes @ 0x20205000)  returns 0x1000 (0057ms, 98284ms total)
T38B8 3184:452 JLINK_WriteMemEx(0x20206000, 0x1000 Bytes, ..., Flags = 0x02000000) - Data: 08 21 0E 48 FF F7 12 F9 03 46 03 F0 04 03 00 2B ... -- CPU_WriteMem(4096 bytes @ 0x20206000)  returns 0x1000 (0056ms, 98340ms total)
T38B8 3184:509 JLINK_WriteMemEx(0x20207000, 0x1000 Bytes, ..., Flags = 0x02000000) - Data: FB 68 5B 69 03 F4 00 03 00 2B F9 D0 7B 69 1B 78 ... -- CPU_WriteMem(4096 bytes @ 0x20207000)  returns 0x1000 (0057ms, 98397ms total)
T38B8 3184:566 JLINK_WriteMemEx(0x20208000, 0x1000 Bytes, ..., Flags = 0x02000000) - Data: 7B 68 01 22 1A 60 00 BF 7B 68 1B 68 03 F0 01 03 ... -- CPU_WriteMem(4096 bytes @ 0x20208000)  returns 0x1000 (0057ms, 98454ms total)
T38B8 3184:624 JLINK_WriteMemEx(0x20209000, 0x1000 Bytes, ..., Flags = 0x02000000) - Data: 00 2B 03 D0 FB 68 BA 6A C3 F8 A0 20 3A 89 0D 4B ... -- CPU_WriteMem(4096 bytes @ 0x20209000)  returns 0x1000 (0057ms, 98511ms total)
T38B8 3184:682 JLINK_WriteMemEx(0x2020A000, 0x1000 Bytes, ..., Flags = 0x02000000) - Data: 13 44 5B 00 1A 46 7B 69 1B 78 13 44 30 3B BB 62 ... -- CPU_WriteMem(4096 bytes @ 0x2020A000)  returns 0x1000 (0056ms, 98567ms total)
T38B8 3184:739 JLINK_WriteMemEx(0x2020B000, 0x1000 Bytes, ..., Flags = 0x02000000) - Data: C4 F8 04 E0 30 46 C7 E9 04 11 C1 E9 02 CC 4D 60 ... -- CPU_WriteMem(4096 bytes @ 0x2020B000)  returns 0x1000 (0057ms, 98624ms total)
T38B8 3184:796 JLINK_WriteMemEx(0x2020C000, 0x1000 Bytes, ..., Flags = 0x02000000) - Data: 6B 75 73 2F 41 70 70 44 61 74 61 2F 4C 6F 63 61 ... -- CPU_WriteMem(4096 bytes @ 0x2020C000)  returns 0x1000 (0057ms, 98681ms total)
T38B8 3184:854 JLINK_WriteMemEx(0x2020D000, 0x0198 Bytes, ..., Flags = 0x02000000) - Data: 43 3A 2F 55 73 65 72 73 2F 4D 61 72 6B 75 73 2F ... -- CPU_WriteMem(408 bytes @ 0x2020D000)  returns 0x198 (0007ms, 98688ms total)
T38B8 3184:861 JLINK_WriteMemEx(0x2020D198, 0x084C Bytes, ..., Flags = 0x02000000) - Data: 00 00 00 00 00 A4 78 1F 10 00 21 20 00 00 00 00 ... -- CPU_WriteMem(2124 bytes @ 0x2020D198)  returns 0x84C (0030ms, 98718ms total)
T38B8 3184:946 JLINK_SetResetType(JLINKARM_CM3_RESET_TYPE_NORMAL)  returns JLINKARM_CM3_RESET_TYPE_NORMAL (0000ms, 98718ms total)
T38B8 3184:946 JLINK_Reset() -- CPU_WriteMem(4 bytes @ 0xE000EDF0) -- CPU_WriteMem(4 bytes @ 0xE000EDFC)Reset: Halt core after reset via DEMCR.VC_CORERESET.Reset: Reset device via AIRCR.SYSRESETREQ. -- CPU_WriteMem(4 bytes @ 0xE000ED0C) -- CPU_ReadMem(4 bytes @ 0xE000EDF0) -- CPU_ReadMem(4 bytes @ 0xE000EDF0) -- CPU_WriteMem(4 bytes @ 0xE000EDF0) -- CPU_WriteMem(4 bytes @ 0xE000EDFC) -- CPU_ReadMem(4 bytes @ 0xE000EDF0) -- CPU_WriteMem(4 bytes @ 0xE0002000) -- CPU_ReadMem(4 bytes @ 0xE000EDFC)
 -- CPU_ReadMem(4 bytes @ 0xE0001000) (0181ms, 98899ms total)
T38B8 3185:127 JLINK_ReadReg(R15 (PC))  returns 0x00201414 (0000ms, 98899ms total)
T38B8 3185:127 JLINK_ReadReg(XPSR)  returns 0x01000000 (0000ms, 98899ms total)
T38B8 3185:127 JLINK_ReadMemEx(0x00201414, 0x003C Bytes, ..., Flags = 0x02000000) -- CPU_ReadMem(60 bytes @ 0x00201414) - Data: 72 B6 0D 48 80 47 0D 48 0D 49 01 60 0D 48 80 47 ...  returns 0x3C (0002ms, 98901ms total)
T38B8 3185:129 JLINK_ReadMemEx(0x00201414, 0x0002 Bytes, ..., Flags = 0x02000000) -- CPU_ReadMem(2 bytes @ 0x00201414) - Data: 72 B6  returns 0x02 (0001ms, 98902ms total)
T38B8 3185:130 JLINK_ReadMemEx(0x00201416, 0x0002 Bytes, ..., Flags = 0x02000000) -- CPU_ReadMem(2 bytes @ 0x00201416) - Data: 0D 48  returns 0x02 (0001ms, 98903ms total)
T38B8 3185:131 JLINK_ReadMemEx(0x00201416, 0x0002 Bytes, ..., Flags = 0x02000000) -- CPU_ReadMem(2 bytes @ 0x00201416) - Data: 0D 48  returns 0x02 (0001ms, 98904ms total)
T38B8 3185:132 JLINK_ReadMemEx(0x00201418, 0x003C Bytes, ..., Flags = 0x02000000) -- CPU_ReadMem(60 bytes @ 0x00201418) - Data: 80 47 0D 48 0D 49 01 60 0D 48 80 47 0D 48 01 68 ...  returns 0x3C (0002ms, 98906ms total)
T38B8 3185:134 JLINK_ReadMemEx(0x00201418, 0x0002 Bytes, ..., Flags = 0x02000000) -- CPU_ReadMem(2 bytes @ 0x00201418) - Data: 80 47  returns 0x02 (0001ms, 98907ms total)
T38B8 3185:135 JLINK_ReadMemEx(0x00201418, 0x003C Bytes, ..., Flags = 0x02000000) -- CPU_ReadMem(60 bytes @ 0x00201418) - Data: 80 47 0D 48 0D 49 01 60 0D 48 80 47 0D 48 01 68 ...  returns 0x3C (0002ms, 98909ms total)
T38B8 3185:137 JLINK_ReadMemEx(0x00201418, 0x0002 Bytes, ..., Flags = 0x02000000) -- CPU_ReadMem(2 bytes @ 0x00201418) - Data: 80 47  returns 0x02 (0001ms, 98910ms total)
T38B8 3185:138 JLINK_ReadMemEx(0x0020141A, 0x0002 Bytes, ..., Flags = 0x02000000) -- CPU_ReadMem(2 bytes @ 0x0020141A) - Data: 0D 48  returns 0x02 (0001ms, 98911ms total)
T38B8 3185:139 JLINK_ReadMemEx(0x0020141A, 0x0002 Bytes, ..., Flags = 0x02000000) -- CPU_ReadMem(2 bytes @ 0x0020141A) - Data: 0D 48  returns 0x02 (0001ms, 98912ms total)
T38B8 3185:140 JLINK_ReadMemEx(0x0020141C, 0x003C Bytes, ..., Flags = 0x02000000) -- CPU_ReadMem(60 bytes @ 0x0020141C) - Data: 0D 49 01 60 0D 48 80 47 0D 48 01 68 41 F0 10 01 ...  returns 0x3C (0002ms, 98914ms total)
T38B8 3185:142 JLINK_ReadMemEx(0x0020141C, 0x0002 Bytes, ..., Flags = 0x02000000) -- CPU_ReadMem(2 bytes @ 0x0020141C) - Data: 0D 49  returns 0x02 (0001ms, 98915ms total)
T38B8 3185:143 JLINK_ReadMemEx(0x0020141C, 0x003C Bytes, ..., Flags = 0x02000000) -- CPU_ReadMem(60 bytes @ 0x0020141C) - Data: 0D 49 01 60 0D 48 80 47 0D 48 01 68 41 F0 10 01 ...  returns 0x3C (0002ms, 98917ms total)
T38B8 3185:145 JLINK_ReadMemEx(0x0020141C, 0x0002 Bytes, ..., Flags = 0x02000000) -- CPU_ReadMem(2 bytes @ 0x0020141C) - Data: 0D 49  returns 0x02 (0000ms, 98917ms total)
T38B8 3185:145 JLINK_ReadMemEx(0x0020141E, 0x0002 Bytes, ..., Flags = 0x02000000) -- CPU_ReadMem(2 bytes @ 0x0020141E) - Data: 01 60  returns 0x02 (0002ms, 98919ms total)
T38B8 3185:147 JLINK_ReadMemEx(0x0020141E, 0x0002 Bytes, ..., Flags = 0x02000000) -- CPU_ReadMem(2 bytes @ 0x0020141E) - Data: 01 60  returns 0x02 (0001ms, 98920ms total)
T38B8 3185:148 JLINK_ReadMemEx(0x00201420, 0x003C Bytes, ..., Flags = 0x02000000) -- CPU_ReadMem(60 bytes @ 0x00201420) - Data: 0D 48 80 47 0D 48 01 68 41 F0 10 01 01 60 62 B6 ...  returns 0x3C (0002ms, 98922ms total)
T38B8 3185:150 JLINK_ReadMemEx(0x00201420, 0x0002 Bytes, ..., Flags = 0x02000000) -- CPU_ReadMem(2 bytes @ 0x00201420) - Data: 0D 48  returns 0x02 (0000ms, 98922ms total)
T38B8 3185:150 JLINK_ReadMemEx(0x00201420, 0x003C Bytes, ..., Flags = 0x02000000) -- CPU_ReadMem(60 bytes @ 0x00201420) - Data: 0D 48 80 47 0D 48 01 68 41 F0 10 01 01 60 62 B6 ...  returns 0x3C (0002ms, 98924ms total)
T38B8 3185:152 JLINK_ReadMemEx(0x00201420, 0x0002 Bytes, ..., Flags = 0x02000000) -- CPU_ReadMem(2 bytes @ 0x00201420) - Data: 0D 48  returns 0x02 (0001ms, 98925ms total)
T38B8 3185:153 JLINK_ReadMemEx(0x00201422, 0x0002 Bytes, ..., Flags = 0x02000000) -- CPU_ReadMem(2 bytes @ 0x00201422) - Data: 80 47  returns 0x02 (0001ms, 98926ms total)
T38B8 3185:154 JLINK_ReadMemEx(0x00201422, 0x0002 Bytes, ..., Flags = 0x02000000) -- CPU_ReadMem(2 bytes @ 0x00201422) - Data: 80 47  returns 0x02 (0002ms, 98928ms total)
T38B8 3185:156 JLINK_ReadMemEx(0x00201424, 0x003C Bytes, ..., Flags = 0x02000000) -- CPU_ReadMem(60 bytes @ 0x00201424) - Data: 0D 48 01 68 41 F0 10 01 01 60 62 B6 0B 48 00 47 ...  returns 0x3C (0001ms, 98929ms total)
T38B8 3185:157 JLINK_ReadMemEx(0x00201424, 0x0002 Bytes, ..., Flags = 0x02000000) -- CPU_ReadMem(2 bytes @ 0x00201424) - Data: 0D 48  returns 0x02 (0001ms, 98930ms total)
T38B8 3185:158 JLINK_ReadMemEx(0x00201424, 0x003C Bytes, ..., Flags = 0x02000000) -- CPU_ReadMem(60 bytes @ 0x00201424) - Data: 0D 48 01 68 41 F0 10 01 01 60 62 B6 0B 48 00 47 ...  returns 0x3C (0002ms, 98932ms total)
T38B8 3185:160 JLINK_ReadMemEx(0x00201424, 0x0002 Bytes, ..., Flags = 0x02000000) -- CPU_ReadMem(2 bytes @ 0x00201424) - Data: 0D 48  returns 0x02 (0001ms, 98933ms total)
T38B8 3185:161 JLINK_ReadMemEx(0x00201426, 0x0002 Bytes, ..., Flags = 0x02000000) -- CPU_ReadMem(2 bytes @ 0x00201426) - Data: 01 68  returns 0x02 (0001ms, 98934ms total)
T38B8 3185:162 JLINK_ReadMemEx(0x00201426, 0x0002 Bytes, ..., Flags = 0x02000000) -- CPU_ReadMem(2 bytes @ 0x00201426) - Data: 01 68  returns 0x02 (0001ms, 98935ms total)
T38B8 3185:163 JLINK_ReadMemEx(0x00201428, 0x003C Bytes, ..., Flags = 0x02000000) -- CPU_ReadMem(60 bytes @ 0x00201428) - Data: 41 F0 10 01 01 60 62 B6 0B 48 00 47 EF F3 08 80 ...  returns 0x3C (0001ms, 98936ms total)
T38B8 3185:164 JLINK_ReadMemEx(0x00201428, 0x0002 Bytes, ..., Flags = 0x02000000) -- CPU_ReadMem(2 bytes @ 0x00201428) - Data: 41 F0  returns 0x02 (0001ms, 98937ms total)
T38B8 3185:165 JLINK_ReadMemEx(0x00201428, 0x003C Bytes, ..., Flags = 0x02000000) -- CPU_ReadMem(60 bytes @ 0x00201428) - Data: 41 F0 10 01 01 60 62 B6 0B 48 00 47 EF F3 08 80 ...  returns 0x3C (0002ms, 98939ms total)
T38B8 3185:167 JLINK_ReadMemEx(0x00201428, 0x0002 Bytes, ..., Flags = 0x02000000) -- CPU_ReadMem(2 bytes @ 0x00201428) - Data: 41 F0  returns 0x02 (0001ms, 98940ms total)
T38B8 3185:168 JLINK_ReadMemEx(0x0020142A, 0x0002 Bytes, ..., Flags = 0x02000000) -- CPU_ReadMem(2 bytes @ 0x0020142A) - Data: 10 01  returns 0x02 (0001ms, 98941ms total)
T38B8 3185:795 JLINK_ReadReg(R0)  returns 0x00000000 (0001ms, 98942ms total)
T38B8 3185:796 JLINK_ReadReg(R1)  returns 0x00000000 (0000ms, 98942ms total)
T38B8 3185:796 JLINK_ReadReg(R2)  returns 0x00000000 (0000ms, 98942ms total)
T38B8 3185:796 JLINK_ReadReg(R3)  returns 0x00000000 (0000ms, 98942ms total)
T38B8 3185:796 JLINK_ReadReg(R4)  returns 0x00000000 (0000ms, 98942ms total)
T38B8 3185:796 JLINK_ReadReg(R5)  returns 0x00000000 (0000ms, 98942ms total)
T38B8 3185:796 JLINK_ReadReg(R6)  returns 0x00000000 (0000ms, 98942ms total)
T38B8 3185:796 JLINK_ReadReg(R7)  returns 0x00000000 (0000ms, 98942ms total)
T38B8 3185:796 JLINK_ReadReg(R8)  returns 0x00000000 (0000ms, 98942ms total)
T38B8 3185:796 JLINK_ReadReg(R9)  returns 0x00000000 (0000ms, 98942ms total)
T38B8 3185:796 JLINK_ReadReg(R10)  returns 0x00000000 (0000ms, 98942ms total)
T38B8 3185:796 JLINK_ReadReg(R11)  returns 0x00000000 (0000ms, 98942ms total)
T38B8 3185:796 JLINK_ReadReg(R12)  returns 0x00000000 (0000ms, 98942ms total)
T38B8 3185:796 JLINK_ReadReg(R13 (SP))  returns 0x20201000 (0000ms, 98942ms total)
T38B8 3185:796 JLINK_ReadReg(R14)  returns 0xFFFFFFFF (0000ms, 98942ms total)
T38B8 3185:796 JLINK_ReadReg(R15 (PC))  returns 0x00201414 (0000ms, 98942ms total)
T38B8 3185:796 JLINK_ReadReg(XPSR)  returns 0x01000000 (0000ms, 98942ms total)
T38B8 3185:796 JLINK_ReadReg(MSP)  returns 0x20201000 (0000ms, 98942ms total)
T38B8 3185:796 JLINK_ReadReg(PSP)  returns 0x00000000 (0000ms, 98942ms total)
T38B8 3185:796 JLINK_ReadReg(CFBP)  returns 0x00000000 (0000ms, 98942ms total)
T38B8 3185:796 JLINK_ReadReg(FPSCR)  returns 0x00000000 (0009ms, 98951ms total)
T38B8 3185:805 JLINK_ReadReg(FPS0)  returns 0x00000000 (0000ms, 98951ms total)
T38B8 3185:805 JLINK_ReadReg(FPS1)  returns 0x00000000 (0000ms, 98951ms total)
T38B8 3185:805 JLINK_ReadReg(FPS2)  returns 0x00000000 (0000ms, 98951ms total)
T38B8 3185:805 JLINK_ReadReg(FPS3)  returns 0x00000000 (0000ms, 98951ms total)
T38B8 3185:805 JLINK_ReadReg(FPS4)  returns 0x00000000 (0000ms, 98951ms total)
T38B8 3185:805 JLINK_ReadReg(FPS5)  returns 0x00000000 (0000ms, 98951ms total)
T38B8 3185:805 JLINK_ReadReg(FPS6)  returns 0x00000000 (0000ms, 98951ms total)
T38B8 3185:805 JLINK_ReadReg(FPS7)  returns 0x00000000 (0000ms, 98951ms total)
T38B8 3185:805 JLINK_ReadReg(FPS8)  returns 0x00000000 (0000ms, 98951ms total)
T38B8 3185:805 JLINK_ReadReg(FPS9)  returns 0x00000000 (0000ms, 98951ms total)
T38B8 3185:805 JLINK_ReadReg(FPS10)  returns 0x00000000 (0000ms, 98951ms total)
T38B8 3185:805 JLINK_ReadReg(FPS11)  returns 0x00000000 (0000ms, 98951ms total)
T38B8 3185:805 JLINK_ReadReg(FPS12)  returns 0x00000000 (0000ms, 98951ms total)
T38B8 3185:805 JLINK_ReadReg(FPS13)  returns 0x00000000 (0000ms, 98951ms total)
T38B8 3185:805 JLINK_ReadReg(FPS14)  returns 0x00000000 (0000ms, 98951ms total)
T38B8 3185:805 JLINK_ReadReg(FPS15)  returns 0xFFFFFFFF (0000ms, 98951ms total)
T38B8 3185:805 JLINK_ReadReg(FPS16)  returns 0x00000000 (0000ms, 98951ms total)
T38B8 3185:805 JLINK_ReadReg(FPS17)  returns 0x00000000 (0000ms, 98951ms total)
T38B8 3185:805 JLINK_ReadReg(FPS18)  returns 0x00000000 (0000ms, 98951ms total)
T38B8 3185:805 JLINK_ReadReg(FPS19)  returns 0x00000000 (0000ms, 98951ms total)
T38B8 3185:805 JLINK_ReadReg(FPS20)  returns 0x00000000 (0000ms, 98951ms total)
T38B8 3185:805 JLINK_ReadReg(FPS21)  returns 0x00000000 (0000ms, 98951ms total)
T38B8 3185:805 JLINK_ReadReg(FPS22)  returns 0x00000000 (0000ms, 98951ms total)
T38B8 3185:805 JLINK_ReadReg(FPS23)  returns 0x00000000 (0000ms, 98951ms total)
T38B8 3185:805 JLINK_ReadReg(FPS24)  returns 0x00000000 (0000ms, 98951ms total)
T38B8 3185:805 JLINK_ReadReg(FPS25)  returns 0x00000000 (0000ms, 98951ms total)
T38B8 3185:805 JLINK_ReadReg(FPS26)  returns 0x00000000 (0000ms, 98951ms total)
T38B8 3185:805 JLINK_ReadReg(FPS27)  returns 0x00000000 (0000ms, 98951ms total)
T38B8 3185:805 JLINK_ReadReg(FPS28)  returns 0x00000000 (0000ms, 98951ms total)
T38B8 3185:805 JLINK_ReadReg(FPS29)  returns 0x00000000 (0000ms, 98951ms total)
T38B8 3185:805 JLINK_ReadReg(FPS30)  returns 0x00000000 (0000ms, 98951ms total)
T38B8 3185:805 JLINK_ReadReg(FPS31)  returns 0xFFFFFFFF (0000ms, 98951ms total)
T38B8 3185:805 JLINK_ReadMemEx(0x80000000, 0x010E Bytes, ..., Flags = 0x02000000) -- CPU_ReadMem(270 bytes @ 0x80000000) - Data: AA AA AA AA AA AA AA AA AA AA AA AA AA AA AA AA ...  returns 0xFFFFFFFF (0002ms, 98953ms total)
T38B8 3185:807 JLINK_ReadMemEx(0x80000000, 0x010E Bytes, ..., Flags = 0x02000000) -- CPU_ReadMem(270 bytes @ 0x80000000) - Data: AA AA AA AA AA AA AA AA AA AA AA AA AA AA AA AA ...  returns 0xFFFFFFFF (0001ms, 98954ms total)
T38B8 3185:808 JLINK_ReadMemEx(0x80000000, 0x0010 Bytes, ..., Flags = 0x02000000) -- CPU_ReadMem(16 bytes @ 0x80000000) - Data: AA AA AA AA AA AA AA AA AA AA AA AA AA AA AA AA  returns 0xFFFFFFFF (0001ms, 98955ms total)
T38B8 3185:809 JLINK_ReadMemEx(0x80000000, 0x0004 Bytes, ..., Flags = 0x02000000) -- CPU_ReadMem(4 bytes @ 0x80000000) - Data: AA AA AA AA  returns 0xFFFFFFFF (0002ms, 98957ms total)
T38B8 3185:811 JLINK_ReadMemEx(0x80000000, 0x0002 Bytes, ..., Flags = 0x02000000) -- CPU_ReadMem(2 bytes @ 0x80000000) - Data: AA AA  returns 0xFFFFFFFF (0000ms, 98957ms total)
T38B8 3185:811 JLINK_ReadMemEx(0x80000000, 0x0001 Bytes, ..., Flags = 0x02000000) -- CPU_ReadMem(1 bytes @ 0x80000000) - Data: AA  returns 0xFFFFFFFF (0001ms, 98958ms total)
T38B8 3185:815 JLINK_ReadMemEx(0x80000000, 0x010E Bytes, ..., Flags = 0x02000000) -- CPU_ReadMem(270 bytes @ 0x80000000) - Data: AA AA AA AA AA AA AA AA AA AA AA AA AA AA AA AA ...  returns 0xFFFFFFFF (0002ms, 98960ms total)
T38B8 3185:817 JLINK_ReadMemEx(0x80000000, 0x010E Bytes, ..., Flags = 0x02000000) -- CPU_ReadMem(270 bytes @ 0x80000000) - Data: AA AA AA AA AA AA AA AA AA AA AA AA AA AA AA AA ...  returns 0xFFFFFFFF (0001ms, 98961ms total)
T38B8 3185:818 JLINK_ReadMemEx(0x80000000, 0x0010 Bytes, ..., Flags = 0x02000000) -- CPU_ReadMem(16 bytes @ 0x80000000) - Data: AA AA AA AA AA AA AA AA AA AA AA AA AA AA AA AA  returns 0xFFFFFFFF (0001ms, 98962ms total)
T38B8 3185:819 JLINK_ReadMemEx(0x80000000, 0x0004 Bytes, ..., Flags = 0x02000000) -- CPU_ReadMem(4 bytes @ 0x80000000) - Data: AA AA AA AA  returns 0xFFFFFFFF (0002ms, 98964ms total)
T38B8 3185:821 JLINK_ReadMemEx(0x80000000, 0x0002 Bytes, ..., Flags = 0x02000000) -- CPU_ReadMem(2 bytes @ 0x80000000) - Data: AA AA  returns 0xFFFFFFFF (0001ms, 98965ms total)
T38B8 3185:822 JLINK_ReadMemEx(0x80000000, 0x0001 Bytes, ..., Flags = 0x02000000) -- CPU_ReadMem(1 bytes @ 0x80000000) - Data: AA  returns 0xFFFFFFFF (0001ms, 98966ms total)
T38B8 3185:823 JLINK_ReadMemEx(0x80000000, 0x010E Bytes, ..., Flags = 0x02000000) -- CPU_ReadMem(270 bytes @ 0x80000000) - Data: AA AA AA AA AA AA AA AA AA AA AA AA AA AA AA AA ...  returns 0xFFFFFFFF (0002ms, 98968ms total)
T38B8 3185:825 JLINK_ReadMemEx(0x80000000, 0x010E Bytes, ..., Flags = 0x02000000) -- CPU_ReadMem(270 bytes @ 0x80000000) - Data: AA AA AA AA AA AA AA AA AA AA AA AA AA AA AA AA ...  returns 0xFFFFFFFF (0002ms, 98970ms total)
T38B8 3185:827 JLINK_ReadMemEx(0x80000000, 0x0010 Bytes, ..., Flags = 0x02000000) -- CPU_ReadMem(16 bytes @ 0x80000000) - Data: AA AA AA AA AA AA AA AA AA AA AA AA AA AA AA AA  returns 0xFFFFFFFF (0001ms, 98971ms total)
T38B8 3185:828 JLINK_ReadMemEx(0x80000000, 0x0004 Bytes, ..., Flags = 0x02000000) -- CPU_ReadMem(4 bytes @ 0x80000000) - Data: AA AA AA AA  returns 0xFFFFFFFF (0001ms, 98972ms total)
T38B8 3185:829 JLINK_ReadMemEx(0x80000000, 0x0002 Bytes, ..., Flags = 0x02000000) -- CPU_ReadMem(2 bytes @ 0x80000000) - Data: AA AA  returns 0xFFFFFFFF (0001ms, 98973ms total)
T38B8 3185:830 JLINK_ReadMemEx(0x80000000, 0x0001 Bytes, ..., Flags = 0x02000000) -- CPU_ReadMem(1 bytes @ 0x80000000) - Data: AA  returns 0xFFFFFFFF (0001ms, 98974ms total)
T38B8 3186:214 JLINK_ReadMemEx(0x00201414, 0x003C Bytes, ..., Flags = 0x02000000) -- CPU_ReadMem(60 bytes @ 0x00201414) - Data: 72 B6 0D 48 80 47 0D 48 0D 49 01 60 0D 48 80 47 ...  returns 0x3C (0002ms, 98976ms total)
T38B8 3186:216 JLINK_ReadMemEx(0x00201414, 0x0002 Bytes, ..., Flags = 0x02000000) -- CPU_ReadMem(2 bytes @ 0x00201414) - Data: 72 B6  returns 0x02 (0001ms, 98977ms total)
T38B8 3186:217 JLINK_ReadMemEx(0x00201416, 0x0002 Bytes, ..., Flags = 0x02000000) -- CPU_ReadMem(2 bytes @ 0x00201416) - Data: 0D 48  returns 0x02 (0001ms, 98978ms total)
T38B8 3186:218 JLINK_ReadMemEx(0x00201416, 0x0002 Bytes, ..., Flags = 0x02000000) -- CPU_ReadMem(2 bytes @ 0x00201416) - Data: 0D 48  returns 0x02 (0001ms, 98979ms total)
T38B8 3186:219 JLINK_ReadMemEx(0x00201418, 0x003C Bytes, ..., Flags = 0x02000000) -- CPU_ReadMem(60 bytes @ 0x00201418) - Data: 80 47 0D 48 0D 49 01 60 0D 48 80 47 0D 48 01 68 ...  returns 0x3C (0002ms, 98981ms total)
T38B8 3186:221 JLINK_ReadMemEx(0x00201418, 0x0002 Bytes, ..., Flags = 0x02000000) -- CPU_ReadMem(2 bytes @ 0x00201418) - Data: 80 47  returns 0x02 (0001ms, 98982ms total)
T38B8 3186:222 JLINK_ReadMemEx(0x00201418, 0x003C Bytes, ..., Flags = 0x02000000) -- CPU_ReadMem(60 bytes @ 0x00201418) - Data: 80 47 0D 48 0D 49 01 60 0D 48 80 47 0D 48 01 68 ...  returns 0x3C (0002ms, 98984ms total)
T38B8 3186:224 JLINK_ReadMemEx(0x00201418, 0x0002 Bytes, ..., Flags = 0x02000000) -- CPU_ReadMem(2 bytes @ 0x00201418) - Data: 80 47  returns 0x02 (0000ms, 98984ms total)
T38B8 3186:224 JLINK_ReadMemEx(0x0020141A, 0x0002 Bytes, ..., Flags = 0x02000000) -- CPU_ReadMem(2 bytes @ 0x0020141A) - Data: 0D 48  returns 0x02 (0001ms, 98985ms total)
T38B8 3186:225 JLINK_ReadMemEx(0x0020141A, 0x0002 Bytes, ..., Flags = 0x02000000) -- CPU_ReadMem(2 bytes @ 0x0020141A) - Data: 0D 48  returns 0x02 (0001ms, 98986ms total)
T38B8 3186:226 JLINK_ReadMemEx(0x0020141C, 0x003C Bytes, ..., Flags = 0x02000000) -- CPU_ReadMem(60 bytes @ 0x0020141C) - Data: 0D 49 01 60 0D 48 80 47 0D 48 01 68 41 F0 10 01 ...  returns 0x3C (0002ms, 98988ms total)
T38B8 3186:228 JLINK_ReadMemEx(0x0020141C, 0x0002 Bytes, ..., Flags = 0x02000000) -- CPU_ReadMem(2 bytes @ 0x0020141C) - Data: 0D 49  returns 0x02 (0001ms, 98989ms total)
T38B8 3186:229 JLINK_ReadMemEx(0x0020141C, 0x003C Bytes, ..., Flags = 0x02000000) -- CPU_ReadMem(60 bytes @ 0x0020141C) - Data: 0D 49 01 60 0D 48 80 47 0D 48 01 68 41 F0 10 01 ...  returns 0x3C (0002ms, 98991ms total)
T38B8 3186:231 JLINK_ReadMemEx(0x0020141C, 0x0002 Bytes, ..., Flags = 0x02000000) -- CPU_ReadMem(2 bytes @ 0x0020141C) - Data: 0D 49  returns 0x02 (0001ms, 98992ms total)
T38B8 3186:232 JLINK_ReadMemEx(0x0020141E, 0x0002 Bytes, ..., Flags = 0x02000000) -- CPU_ReadMem(2 bytes @ 0x0020141E) - Data: 01 60  returns 0x02 (0001ms, 98993ms total)
T38B8 3186:233 JLINK_ReadMemEx(0x0020141E, 0x0002 Bytes, ..., Flags = 0x02000000) -- CPU_ReadMem(2 bytes @ 0x0020141E) - Data: 01 60  returns 0x02 (0001ms, 98994ms total)
T38B8 3186:234 JLINK_ReadMemEx(0x00201420, 0x003C Bytes, ..., Flags = 0x02000000) -- CPU_ReadMem(60 bytes @ 0x00201420) - Data: 0D 48 80 47 0D 48 01 68 41 F0 10 01 01 60 62 B6 ...  returns 0x3C (0002ms, 98996ms total)
T38B8 3186:236 JLINK_ReadMemEx(0x00201420, 0x0002 Bytes, ..., Flags = 0x02000000) -- CPU_ReadMem(2 bytes @ 0x00201420) - Data: 0D 48  returns 0x02 (0001ms, 98997ms total)
T38B8 3186:237 JLINK_ReadMemEx(0x00201420, 0x003C Bytes, ..., Flags = 0x02000000) -- CPU_ReadMem(60 bytes @ 0x00201420) - Data: 0D 48 80 47 0D 48 01 68 41 F0 10 01 01 60 62 B6 ...  returns 0x3C (0002ms, 98999ms total)
T38B8 3186:239 JLINK_ReadMemEx(0x00201420, 0x0002 Bytes, ..., Flags = 0x02000000) -- CPU_ReadMem(2 bytes @ 0x00201420) - Data: 0D 48  returns 0x02 (0000ms, 98999ms total)
T38B8 3186:239 JLINK_ReadMemEx(0x00201422, 0x0002 Bytes, ..., Flags = 0x02000000) -- CPU_ReadMem(2 bytes @ 0x00201422) - Data: 80 47  returns 0x02 (0002ms, 99001ms total)
T38B8 3186:241 JLINK_ReadMemEx(0x00201422, 0x0002 Bytes, ..., Flags = 0x02000000) -- CPU_ReadMem(2 bytes @ 0x00201422) - Data: 80 47  returns 0x02 (0001ms, 99002ms total)
T38B8 3186:242 JLINK_ReadMemEx(0x00201424, 0x003C Bytes, ..., Flags = 0x02000000) -- CPU_ReadMem(60 bytes @ 0x00201424) - Data: 0D 48 01 68 41 F0 10 01 01 60 62 B6 0B 48 00 47 ...  returns 0x3C (0002ms, 99004ms total)
T38B8 3186:244 JLINK_ReadMemEx(0x00201424, 0x0002 Bytes, ..., Flags = 0x02000000) -- CPU_ReadMem(2 bytes @ 0x00201424) - Data: 0D 48  returns 0x02 (0000ms, 99004ms total)
T38B8 3186:244 JLINK_ReadMemEx(0x00201424, 0x003C Bytes, ..., Flags = 0x02000000) -- CPU_ReadMem(60 bytes @ 0x00201424) - Data: 0D 48 01 68 41 F0 10 01 01 60 62 B6 0B 48 00 47 ...  returns 0x3C (0002ms, 99006ms total)
T38B8 3186:246 JLINK_ReadMemEx(0x00201424, 0x0002 Bytes, ..., Flags = 0x02000000) -- CPU_ReadMem(2 bytes @ 0x00201424) - Data: 0D 48  returns 0x02 (0001ms, 99007ms total)
T38B8 3186:247 JLINK_ReadMemEx(0x00201426, 0x0002 Bytes, ..., Flags = 0x02000000) -- CPU_ReadMem(2 bytes @ 0x00201426) - Data: 01 68  returns 0x02 (0001ms, 99008ms total)
T38B8 3186:248 JLINK_ReadMemEx(0x00201426, 0x0002 Bytes, ..., Flags = 0x02000000) -- CPU_ReadMem(2 bytes @ 0x00201426) - Data: 01 68  returns 0x02 (0001ms, 99009ms total)
T38B8 3186:249 JLINK_ReadMemEx(0x00201428, 0x003C Bytes, ..., Flags = 0x02000000) -- CPU_ReadMem(60 bytes @ 0x00201428) - Data: 41 F0 10 01 01 60 62 B6 0B 48 00 47 EF F3 08 80 ...  returns 0x3C (0002ms, 99011ms total)
T38B8 3186:251 JLINK_ReadMemEx(0x00201428, 0x0002 Bytes, ..., Flags = 0x02000000) -- CPU_ReadMem(2 bytes @ 0x00201428) - Data: 41 F0  returns 0x02 (0001ms, 99012ms total)
T38B8 3186:252 JLINK_ReadMemEx(0x00201428, 0x003C Bytes, ..., Flags = 0x02000000) -- CPU_ReadMem(60 bytes @ 0x00201428) - Data: 41 F0 10 01 01 60 62 B6 0B 48 00 47 EF F3 08 80 ...  returns 0x3C (0002ms, 99014ms total)
T38B8 3186:254 JLINK_ReadMemEx(0x00201428, 0x0002 Bytes, ..., Flags = 0x02000000) -- CPU_ReadMem(2 bytes @ 0x00201428) - Data: 41 F0  returns 0x02 (0001ms, 99015ms total)
T38B8 3186:255 JLINK_ReadMemEx(0x0020142A, 0x0002 Bytes, ..., Flags = 0x02000000) -- CPU_ReadMem(2 bytes @ 0x0020142A) - Data: 10 01  returns 0x02 (0001ms, 99016ms total)
T38B8 3186:429 JLINK_WriteMemEx(0x400FC068, 0x0004 Bytes, ..., Flags = 0x02000000) - Data: FF FF FF FF -- CPU_WriteMem(4 bytes @ 0x400FC068)  returns 0x04 (0002ms, 99018ms total)
T38B8 3186:431 JLINK_WriteMemEx(0x400FC06C, 0x0004 Bytes, ..., Flags = 0x02000000) - Data: FF FF FF FF -- CPU_WriteMem(4 bytes @ 0x400FC06C)  returns 0x04 (0001ms, 99019ms total)
T38B8 3186:432 JLINK_WriteMemEx(0x400FC070, 0x0004 Bytes, ..., Flags = 0x02000000) - Data: FF FF FF FF -- CPU_WriteMem(4 bytes @ 0x400FC070)  returns 0x04 (0000ms, 99019ms total)
T38B8 3186:432 JLINK_WriteMemEx(0x400FC074, 0x0004 Bytes, ..., Flags = 0x02000000) - Data: FF FF FF FF -- CPU_WriteMem(4 bytes @ 0x400FC074)  returns 0x04 (0001ms, 99020ms total)
T38B8 3186:433 JLINK_WriteMemEx(0x400FC078, 0x0004 Bytes, ..., Flags = 0x02000000) - Data: FF FF FF FF -- CPU_WriteMem(4 bytes @ 0x400FC078)  returns 0x04 (0001ms, 99021ms total)
T38B8 3186:434 JLINK_WriteMemEx(0x400FC07C, 0x0004 Bytes, ..., Flags = 0x02000000) - Data: FF FF FF FF -- CPU_WriteMem(4 bytes @ 0x400FC07C)  returns 0x04 (0002ms, 99023ms total)
T38B8 3186:436 JLINK_WriteMemEx(0x400FC080, 0x0004 Bytes, ..., Flags = 0x02000000) - Data: FF FF FF FF -- CPU_WriteMem(4 bytes @ 0x400FC080)  returns 0x04 (0001ms, 99024ms total)
T38B8 3186:437 JLINK_WriteMemEx(0x400FC01C, 0x0004 Bytes, ..., Flags = 0x02000000) - Data: 01 00 90 04 -- CPU_WriteMem(4 bytes @ 0x400FC01C)  returns 0x04 (0001ms, 99025ms total)
T38B8 3186:438 JLINK_WriteMemEx(0x400D8030, 0x0004 Bytes, ..., Flags = 0x02000000) - Data: 01 20 01 00 -- CPU_WriteMem(4 bytes @ 0x400D8030)  returns 0x04 (0001ms, 99026ms total)
T38B8 3186:439 JLINK_ReadMemEx(0x400D8030, 0x0004 Bytes, ..., Flags = 0x02000000) -- CPU_ReadMem(4 bytes @ 0x400D8030) - Data: 01 20 01 80  returns 0x04 (0001ms, 99027ms total)
T38B8 3186:440 JLINK_WriteMemEx(0x400D8030, 0x0004 Bytes, ..., Flags = 0x02000000) - Data: 01 20 00 00 -- CPU_WriteMem(4 bytes @ 0x400D8030)  returns 0x04 (0002ms, 99029ms total)
T38B8 3186:442 JLINK_WriteMemEx(0x400D8100, 0x0004 Bytes, ..., Flags = 0x02000000) - Data: 00 00 1D 00 -- CPU_WriteMem(4 bytes @ 0x400D8100)  returns 0x04 (0001ms, 99030ms total)
T38B8 3186:443 JLINK_WriteMemEx(0x400FC014, 0x0004 Bytes, ..., Flags = 0x02000000) - Data: 40 0D 01 00 -- CPU_WriteMem(4 bytes @ 0x400FC014)  returns 0x04 (0001ms, 99031ms total)
T38B8 3186:444 JLINK_WriteMemEx(0x401F8014, 0x0004 Bytes, ..., Flags = 0x02000000) - Data: 00 00 00 00 -- CPU_WriteMem(4 bytes @ 0x401F8014)  returns 0x04 (0001ms, 99032ms total)
T38B8 3186:445 JLINK_WriteMemEx(0x401F8018, 0x0004 Bytes, ..., Flags = 0x02000000) - Data: 00 00 00 00 -- CPU_WriteMem(4 bytes @ 0x401F8018)  returns 0x04 (0001ms, 99033ms total)
T38B8 3186:446 JLINK_WriteMemEx(0x401F801C, 0x0004 Bytes, ..., Flags = 0x02000000) - Data: 00 00 00 00 -- CPU_WriteMem(4 bytes @ 0x401F801C)  returns 0x04 (0002ms, 99035ms total)
T38B8 3186:448 JLINK_WriteMemEx(0x401F8020, 0x0004 Bytes, ..., Flags = 0x02000000) - Data: 00 00 00 00 -- CPU_WriteMem(4 bytes @ 0x401F8020)  returns 0x04 (0001ms, 99036ms total)
T38B8 3186:449 JLINK_WriteMemEx(0x401F8024, 0x0004 Bytes, ..., Flags = 0x02000000) - Data: 00 00 00 00 -- CPU_WriteMem(4 bytes @ 0x401F8024)  returns 0x04 (0001ms, 99037ms total)
T38B8 3186:450 JLINK_WriteMemEx(0x401F8028, 0x0004 Bytes, ..., Flags = 0x02000000) - Data: 00 00 00 00 -- CPU_WriteMem(4 bytes @ 0x401F8028)  returns 0x04 (0001ms, 99038ms total)
T38B8 3186:451 JLINK_WriteMemEx(0x401F802C, 0x0004 Bytes, ..., Flags = 0x02000000) - Data: 00 00 00 00 -- CPU_WriteMem(4 bytes @ 0x401F802C)  returns 0x04 (0001ms, 99039ms total)
T38B8 3186:452 JLINK_WriteMemEx(0x401F8030, 0x0004 Bytes, ..., Flags = 0x02000000) - Data: 00 00 00 00 -- CPU_WriteMem(4 bytes @ 0x401F8030)  returns 0x04 (0002ms, 99041ms total)
T38B8 3186:454 JLINK_WriteMemEx(0x401F8034, 0x0004 Bytes, ..., Flags = 0x02000000) - Data: 00 00 00 00 -- CPU_WriteMem(4 bytes @ 0x401F8034)  returns 0x04 (0001ms, 99042ms total)
T38B8 3186:455 JLINK_WriteMemEx(0x401F8038, 0x0004 Bytes, ..., Flags = 0x02000000) - Data: 00 00 00 00 -- CPU_WriteMem(4 bytes @ 0x401F8038)  returns 0x04 (0001ms, 99043ms total)
T38B8 3186:456 JLINK_WriteMemEx(0x401F803C, 0x0004 Bytes, ..., Flags = 0x02000000) - Data: 00 00 00 00 -- CPU_WriteMem(4 bytes @ 0x401F803C)  returns 0x04 (0001ms, 99044ms total)
T38B8 3186:457 JLINK_WriteMemEx(0x401F8040, 0x0004 Bytes, ..., Flags = 0x02000000) - Data: 00 00 00 00 -- CPU_WriteMem(4 bytes @ 0x401F8040)  returns 0x04 (0002ms, 99046ms total)
T38B8 3186:459 JLINK_WriteMemEx(0x401F8044, 0x0004 Bytes, ..., Flags = 0x02000000) - Data: 00 00 00 00 -- CPU_WriteMem(4 bytes @ 0x401F8044)  returns 0x04 (0001ms, 99047ms total)
T38B8 3186:460 JLINK_WriteMemEx(0x401F8048, 0x0004 Bytes, ..., Flags = 0x02000000) - Data: 00 00 00 00 -- CPU_WriteMem(4 bytes @ 0x401F8048)  returns 0x04 (0001ms, 99048ms total)
T38B8 3186:461 JLINK_WriteMemEx(0x401F804C, 0x0004 Bytes, ..., Flags = 0x02000000) - Data: 00 00 00 00 -- CPU_WriteMem(4 bytes @ 0x401F804C)  returns 0x04 (0001ms, 99049ms total)
T38B8 3186:462 JLINK_WriteMemEx(0x401F8050, 0x0004 Bytes, ..., Flags = 0x02000000) - Data: 00 00 00 00 -- CPU_WriteMem(4 bytes @ 0x401F8050)  returns 0x04 (0001ms, 99050ms total)
T38B8 3186:463 JLINK_WriteMemEx(0x401F8054, 0x0004 Bytes, ..., Flags = 0x02000000) - Data: 00 00 00 00 -- CPU_WriteMem(4 bytes @ 0x401F8054)  returns 0x04 (0001ms, 99051ms total)
T38B8 3186:464 JLINK_WriteMemEx(0x401F8058, 0x0004 Bytes, ..., Flags = 0x02000000) - Data: 00 00 00 00 -- CPU_WriteMem(4 bytes @ 0x401F8058)  returns 0x04 (0001ms, 99052ms total)
T38B8 3186:465 JLINK_WriteMemEx(0x401F805C, 0x0004 Bytes, ..., Flags = 0x02000000) - Data: 00 00 00 00 -- CPU_WriteMem(4 bytes @ 0x401F805C)  returns 0x04 (0002ms, 99054ms total)
T38B8 3186:467 JLINK_WriteMemEx(0x401F8060, 0x0004 Bytes, ..., Flags = 0x02000000) - Data: 00 00 00 00 -- CPU_WriteMem(4 bytes @ 0x401F8060)  returns 0x04 (0001ms, 99055ms total)
T38B8 3186:468 JLINK_WriteMemEx(0x401F8064, 0x0004 Bytes, ..., Flags = 0x02000000) - Data: 00 00 00 00 -- CPU_WriteMem(4 bytes @ 0x401F8064)  returns 0x04 (0002ms, 99057ms total)
T38B8 3186:470 JLINK_WriteMemEx(0x401F8068, 0x0004 Bytes, ..., Flags = 0x02000000) - Data: 00 00 00 00 -- CPU_WriteMem(4 bytes @ 0x401F8068)  returns 0x04 (0001ms, 99058ms total)
T38B8 3186:471 JLINK_WriteMemEx(0x401F806C, 0x0004 Bytes, ..., Flags = 0x02000000) - Data: 00 00 00 00 -- CPU_WriteMem(4 bytes @ 0x401F806C)  returns 0x04 (0001ms, 99059ms total)
T38B8 3186:472 JLINK_WriteMemEx(0x401F8070, 0x0004 Bytes, ..., Flags = 0x02000000) - Data: 00 00 00 00 -- CPU_WriteMem(4 bytes @ 0x401F8070)  returns 0x04 (0001ms, 99060ms total)
T38B8 3186:473 JLINK_WriteMemEx(0x401F8074, 0x0004 Bytes, ..., Flags = 0x02000000) - Data: 00 00 00 00 -- CPU_WriteMem(4 bytes @ 0x401F8074)  returns 0x04 (0001ms, 99061ms total)
T38B8 3186:474 JLINK_WriteMemEx(0x401F8078, 0x0004 Bytes, ..., Flags = 0x02000000) - Data: 00 00 00 00 -- CPU_WriteMem(4 bytes @ 0x401F8078)  returns 0x04 (0001ms, 99062ms total)
T38B8 3186:475 JLINK_WriteMemEx(0x401F807C, 0x0004 Bytes, ..., Flags = 0x02000000) - Data: 00 00 00 00 -- CPU_WriteMem(4 bytes @ 0x401F807C)  returns 0x04 (0001ms, 99063ms total)
T38B8 3186:476 JLINK_WriteMemEx(0x401F8080, 0x0004 Bytes, ..., Flags = 0x02000000) - Data: 00 00 00 00 -- CPU_WriteMem(4 bytes @ 0x401F8080)  returns 0x04 (0002ms, 99065ms total)
T38B8 3186:478 JLINK_WriteMemEx(0x401F8084, 0x0004 Bytes, ..., Flags = 0x02000000) - Data: 00 00 00 00 -- CPU_WriteMem(4 bytes @ 0x401F8084)  returns 0x04 (0001ms, 99066ms total)
T38B8 3186:479 JLINK_WriteMemEx(0x401F8088, 0x0004 Bytes, ..., Flags = 0x02000000) - Data: 00 00 00 00 -- CPU_WriteMem(4 bytes @ 0x401F8088)  returns 0x04 (0001ms, 99067ms total)
T38B8 3186:480 JLINK_WriteMemEx(0x401F808C, 0x0004 Bytes, ..., Flags = 0x02000000) - Data: 00 00 00 00 -- CPU_WriteMem(4 bytes @ 0x401F808C)  returns 0x04 (0001ms, 99068ms total)
T38B8 3186:481 JLINK_WriteMemEx(0x401F8090, 0x0004 Bytes, ..., Flags = 0x02000000) - Data: 00 00 00 00 -- CPU_WriteMem(4 bytes @ 0x401F8090)  returns 0x04 (0001ms, 99069ms total)
T38B8 3186:482 JLINK_WriteMemEx(0x401F8094, 0x0004 Bytes, ..., Flags = 0x02000000) - Data: 00 00 00 00 -- CPU_WriteMem(4 bytes @ 0x401F8094)  returns 0x04 (0002ms, 99071ms total)
T38B8 3186:484 JLINK_WriteMemEx(0x401F8098, 0x0004 Bytes, ..., Flags = 0x02000000) - Data: 00 00 00 00 -- CPU_WriteMem(4 bytes @ 0x401F8098)  returns 0x04 (0001ms, 99072ms total)
T38B8 3186:485 JLINK_WriteMemEx(0x401F809C, 0x0004 Bytes, ..., Flags = 0x02000000) - Data: 00 00 00 00 -- CPU_WriteMem(4 bytes @ 0x401F809C)  returns 0x04 (0001ms, 99073ms total)
T38B8 3186:486 JLINK_WriteMemEx(0x401F80A0, 0x0004 Bytes, ..., Flags = 0x02000000) - Data: 00 00 00 00 -- CPU_WriteMem(4 bytes @ 0x401F80A0)  returns 0x04 (0001ms, 99074ms total)
T38B8 3186:487 JLINK_WriteMemEx(0x401F80A4, 0x0004 Bytes, ..., Flags = 0x02000000) - Data: 00 00 00 00 -- CPU_WriteMem(4 bytes @ 0x401F80A4)  returns 0x04 (0002ms, 99076ms total)
T38B8 3186:489 JLINK_WriteMemEx(0x401F80A8, 0x0004 Bytes, ..., Flags = 0x02000000) - Data: 00 00 00 00 -- CPU_WriteMem(4 bytes @ 0x401F80A8)  returns 0x04 (0001ms, 99077ms total)
T38B8 3186:490 JLINK_WriteMemEx(0x401F80AC, 0x0004 Bytes, ..., Flags = 0x02000000) - Data: 00 00 00 00 -- CPU_WriteMem(4 bytes @ 0x401F80AC)  returns 0x04 (0001ms, 99078ms total)
T38B8 3186:491 JLINK_WriteMemEx(0x401F80B0, 0x0004 Bytes, ..., Flags = 0x02000000) - Data: 10 00 00 00 -- CPU_WriteMem(4 bytes @ 0x401F80B0)  returns 0x04 (0001ms, 99079ms total)
T38B8 3186:492 JLINK_WriteMemEx(0x401F80B4, 0x0004 Bytes, ..., Flags = 0x02000000) - Data: 00 00 00 00 -- CPU_WriteMem(4 bytes @ 0x401F80B4)  returns 0x04 (0000ms, 99079ms total)
T38B8 3186:492 JLINK_WriteMemEx(0x401F80B8, 0x0004 Bytes, ..., Flags = 0x02000000) - Data: 00 00 00 00 -- CPU_WriteMem(4 bytes @ 0x401F80B8)  returns 0x04 (0002ms, 99081ms total)
T38B8 3186:494 JLINK_WriteMemEx(0x401F8204, 0x0004 Bytes, ..., Flags = 0x02000000) - Data: F9 10 01 00 -- CPU_WriteMem(4 bytes @ 0x401F8204)  returns 0x04 (0001ms, 99082ms total)
T38B8 3186:495 JLINK_WriteMemEx(0x401F8208, 0x0004 Bytes, ..., Flags = 0x02000000) - Data: F9 10 01 00 -- CPU_WriteMem(4 bytes @ 0x401F8208)  returns 0x04 (0001ms, 99083ms total)
T38B8 3186:496 JLINK_WriteMemEx(0x401F820C, 0x0004 Bytes, ..., Flags = 0x02000000) - Data: F9 10 01 00 -- CPU_WriteMem(4 bytes @ 0x401F820C)  returns 0x04 (0001ms, 99084ms total)
T38B8 3186:497 JLINK_WriteMemEx(0x401F8210, 0x0004 Bytes, ..., Flags = 0x02000000) - Data: F9 10 01 00 -- CPU_WriteMem(4 bytes @ 0x401F8210)  returns 0x04 (0001ms, 99085ms total)
T38B8 3186:498 JLINK_WriteMemEx(0x401F8214, 0x0004 Bytes, ..., Flags = 0x02000000) - Data: F9 10 01 00 -- CPU_WriteMem(4 bytes @ 0x401F8214)  returns 0x04 (0002ms, 99087ms total)
T38B8 3186:500 JLINK_WriteMemEx(0x401F8218, 0x0004 Bytes, ..., Flags = 0x02000000) - Data: F9 10 01 00 -- CPU_WriteMem(4 bytes @ 0x401F8218)  returns 0x04 (0001ms, 99088ms total)
T38B8 3186:501 JLINK_WriteMemEx(0x401F821C, 0x0004 Bytes, ..., Flags = 0x02000000) - Data: F9 10 01 00 -- CPU_WriteMem(4 bytes @ 0x401F821C)  returns 0x04 (0002ms, 99090ms total)
T38B8 3186:503 JLINK_WriteMemEx(0x401F8220, 0x0004 Bytes, ..., Flags = 0x02000000) - Data: F9 10 01 00 -- CPU_WriteMem(4 bytes @ 0x401F8220)  returns 0x04 (0001ms, 99091ms total)
T38B8 3186:504 JLINK_WriteMemEx(0x401F8224, 0x0004 Bytes, ..., Flags = 0x02000000) - Data: F9 10 01 00 -- CPU_WriteMem(4 bytes @ 0x401F8224)  returns 0x04 (0001ms, 99092ms total)
T38B8 3186:505 JLINK_WriteMemEx(0x401F8228, 0x0004 Bytes, ..., Flags = 0x02000000) - Data: F9 10 01 00 -- CPU_WriteMem(4 bytes @ 0x401F8228)  returns 0x04 (0001ms, 99093ms total)
T38B8 3186:506 JLINK_WriteMemEx(0x401F822C, 0x0004 Bytes, ..., Flags = 0x02000000) - Data: F9 10 01 00 -- CPU_WriteMem(4 bytes @ 0x401F822C)  returns 0x04 (0001ms, 99094ms total)
T38B8 3186:507 JLINK_WriteMemEx(0x401F8230, 0x0004 Bytes, ..., Flags = 0x02000000) - Data: F9 10 01 00 -- CPU_WriteMem(4 bytes @ 0x401F8230)  returns 0x04 (0002ms, 99096ms total)
T38B8 3186:509 JLINK_WriteMemEx(0x401F8234, 0x0004 Bytes, ..., Flags = 0x02000000) - Data: F9 10 01 00 -- CPU_WriteMem(4 bytes @ 0x401F8234)  returns 0x04 (0001ms, 99097ms total)
T38B8 3186:510 JLINK_WriteMemEx(0x401F8238, 0x0004 Bytes, ..., Flags = 0x02000000) - Data: F9 10 01 00 -- CPU_WriteMem(4 bytes @ 0x401F8238)  returns 0x04 (0001ms, 99098ms total)
T38B8 3186:511 JLINK_WriteMemEx(0x401F823C, 0x0004 Bytes, ..., Flags = 0x02000000) - Data: F9 10 01 00 -- CPU_WriteMem(4 bytes @ 0x401F823C)  returns 0x04 (0001ms, 99099ms total)
T38B8 3186:512 JLINK_WriteMemEx(0x401F8240, 0x0004 Bytes, ..., Flags = 0x02000000) - Data: F9 10 01 00 -- CPU_WriteMem(4 bytes @ 0x401F8240)  returns 0x04 (0001ms, 99100ms total)
T38B8 3186:513 JLINK_WriteMemEx(0x401F8244, 0x0004 Bytes, ..., Flags = 0x02000000) - Data: F9 10 01 00 -- CPU_WriteMem(4 bytes @ 0x401F8244)  returns 0x04 (0002ms, 99102ms total)
T38B8 3186:515 JLINK_WriteMemEx(0x401F8248, 0x0004 Bytes, ..., Flags = 0x02000000) - Data: F9 10 01 00 -- CPU_WriteMem(4 bytes @ 0x401F8248)  returns 0x04 (0001ms, 99103ms total)
T38B8 3186:516 JLINK_WriteMemEx(0x401F824C, 0x0004 Bytes, ..., Flags = 0x02000000) - Data: F9 10 01 00 -- CPU_WriteMem(4 bytes @ 0x401F824C)  returns 0x04 (0001ms, 99104ms total)
T38B8 3186:517 JLINK_WriteMemEx(0x401F8250, 0x0004 Bytes, ..., Flags = 0x02000000) - Data: F9 10 01 00 -- CPU_WriteMem(4 bytes @ 0x401F8250)  returns 0x04 (0001ms, 99105ms total)
T38B8 3186:518 JLINK_WriteMemEx(0x401F8254, 0x0004 Bytes, ..., Flags = 0x02000000) - Data: F9 10 01 00 -- CPU_WriteMem(4 bytes @ 0x401F8254)  returns 0x04 (0000ms, 99105ms total)
T38B8 3186:518 JLINK_WriteMemEx(0x401F8258, 0x0004 Bytes, ..., Flags = 0x02000000) - Data: F9 10 01 00 -- CPU_WriteMem(4 bytes @ 0x401F8258)  returns 0x04 (0003ms, 99108ms total)
T38B8 3186:521 JLINK_WriteMemEx(0x401F825C, 0x0004 Bytes, ..., Flags = 0x02000000) - Data: F9 10 01 00 -- CPU_WriteMem(4 bytes @ 0x401F825C)  returns 0x04 (0001ms, 99109ms total)
T38B8 3186:522 JLINK_WriteMemEx(0x401F8260, 0x0004 Bytes, ..., Flags = 0x02000000) - Data: F9 10 01 00 -- CPU_WriteMem(4 bytes @ 0x401F8260)  returns 0x04 (0000ms, 99109ms total)
T38B8 3186:522 JLINK_WriteMemEx(0x401F8264, 0x0004 Bytes, ..., Flags = 0x02000000) - Data: F9 10 01 00 -- CPU_WriteMem(4 bytes @ 0x401F8264)  returns 0x04 (0002ms, 99111ms total)
T38B8 3186:524 JLINK_WriteMemEx(0x401F8268, 0x0004 Bytes, ..., Flags = 0x02000000) - Data: F9 10 01 00 -- CPU_WriteMem(4 bytes @ 0x401F8268)  returns 0x04 (0001ms, 99112ms total)
T38B8 3186:525 JLINK_WriteMemEx(0x401F826C, 0x0004 Bytes, ..., Flags = 0x02000000) - Data: F9 10 01 00 -- CPU_WriteMem(4 bytes @ 0x401F826C)  returns 0x04 (0001ms, 99113ms total)
T38B8 3186:526 JLINK_WriteMemEx(0x401F8270, 0x0004 Bytes, ..., Flags = 0x02000000) - Data: F9 10 01 00 -- CPU_WriteMem(4 bytes @ 0x401F8270)  returns 0x04 (0001ms, 99114ms total)
T38B8 3186:527 JLINK_WriteMemEx(0x401F8274, 0x0004 Bytes, ..., Flags = 0x02000000) - Data: F9 10 01 00 -- CPU_WriteMem(4 bytes @ 0x401F8274)  returns 0x04 (0001ms, 99115ms total)
T38B8 3186:528 JLINK_WriteMemEx(0x401F8278, 0x0004 Bytes, ..., Flags = 0x02000000) - Data: F9 10 01 00 -- CPU_WriteMem(4 bytes @ 0x401F8278)  returns 0x04 (0001ms, 99116ms total)
T38B8 3186:529 JLINK_WriteMemEx(0x401F827C, 0x0004 Bytes, ..., Flags = 0x02000000) - Data: F9 10 01 00 -- CPU_WriteMem(4 bytes @ 0x401F827C)  returns 0x04 (0001ms, 99117ms total)
T38B8 3186:530 JLINK_WriteMemEx(0x401F8280, 0x0004 Bytes, ..., Flags = 0x02000000) - Data: F9 10 01 00 -- CPU_WriteMem(4 bytes @ 0x401F8280)  returns 0x04 (0001ms, 99118ms total)
